<Qucs Dataset 1.0.2>
<indep time 59>
0.000000000000e+00
1.000000000000e-04
2.000000000000e-04
4.000000000000e-04
8.000000000000e-04
1.600000000000e-03
3.200000000000e-03
6.400000000000e-03
1.280000000000e-02
2.560000000000e-02
4.560000000000e-02
6.560000000000e-02
8.560000000000e-02
1.056000000000e-01
1.256000000000e-01
1.456000000000e-01
1.656000000000e-01
1.856000000000e-01
2.056000000000e-01
2.256000000000e-01
2.456000000000e-01
2.656000000000e-01
2.856000000000e-01
3.056000000000e-01
3.256000000000e-01
3.456000000000e-01
3.656000000000e-01
3.856000000000e-01
4.056000000000e-01
4.256000000000e-01
4.456000000000e-01
4.656000000000e-01
4.856000000000e-01
5.056000000000e-01
5.256000000000e-01
5.456000000000e-01
5.656000000000e-01
5.856000000000e-01
6.056000000000e-01
6.256000000000e-01
6.456000000000e-01
6.656000000000e-01
6.856000000000e-01
7.056000000000e-01
7.256000000000e-01
7.456000000000e-01
7.656000000000e-01
7.856000000000e-01
8.056000000000e-01
8.256000000000e-01
8.456000000000e-01
8.656000000000e-01
8.856000000000e-01
9.056000000000e-01
9.256000000000e-01
9.456000000000e-01
9.656000000000e-01
9.856000000000e-01
1.000000000000e+00
</indep>
<dep tran.v(pr1) time>
3.000000000000e+00
3.000000000000e+00
3.000000000000e+00
3.000000000000e+00
3.000000000000e+00
3.000000000000e+00
3.000000000000e+00
3.000000000000e+00
3.000000000000e+00
3.000000000000e+00
3.000000000000e+00
3.000000000000e+00
3.000000000000e+00
3.000000000000e+00
3.000000000000e+00
3.000000000000e+00
3.000000000000e+00
3.000000000000e+00
3.000000000000e+00
3.000000000000e+00
3.000000000000e+00
3.000000000000e+00
3.000000000000e+00
3.000000000000e+00
3.000000000000e+00
3.000000000000e+00
3.000000000000e+00
3.000000000000e+00
3.000000000000e+00
3.000000000000e+00
3.000000000000e+00
3.000000000000e+00
3.000000000000e+00
3.000000000000e+00
3.000000000000e+00
3.000000000000e+00
3.000000000000e+00
3.000000000000e+00
3.000000000000e+00
3.000000000000e+00
3.000000000000e+00
3.000000000000e+00
3.000000000000e+00
3.000000000000e+00
3.000000000000e+00
3.000000000000e+00
3.000000000000e+00
3.000000000000e+00
3.000000000000e+00
3.000000000000e+00
3.000000000000e+00
3.000000000000e+00
3.000000000000e+00
3.000000000000e+00
3.000000000000e+00
3.000000000000e+00
3.000000000000e+00
3.000000000000e+00
3.000000000000e+00
</dep>
<dep tran.v(pr2) time>
2.993952216535e+00
2.992071061001e+00
2.990189906209e+00
2.986427601825e+00
2.978903034645e+00
2.963854232991e+00
2.933759291267e+00
2.873590698711e+00
2.753423783568e+00
2.514450284728e+00
2.147833366121e+00
1.794560247232e+00
1.460202256181e+00
1.150032418222e+00
8.689422969870e-01
6.213648516027e-01
4.112045262783e-01
2.417756748879e-01
1.157502916299e-01
3.511587208217e-02
1.144069209567e-03
1.437063863721e-02
7.458698946405e-02
1.808434738661e-01
3.314643636096e-01
5.240742772870e-01
7.556356414999e-01
1.022496595207e+00
1.320448581752e+00
1.644792720321e+00
1.990413910093e+00
2.351861498444e+00
2.723435240984e+00
3.099275197828e+00
3.473454148341e+00
3.840071066948e+00
4.193344185837e+00
4.527702176888e+00
4.837872014847e+00
5.118962136082e+00
5.366539581466e+00
5.576699906791e+00
5.746128758181e+00
5.872154141439e+00
5.952788560987e+00
5.986760363860e+00
5.973533794432e+00
5.913317443605e+00
5.807060959203e+00
5.656440069460e+00
5.463830155782e+00
5.232268791569e+00
4.965407837863e+00
4.667455851317e+00
4.343111712748e+00
3.997490522976e+00
3.636042934626e+00
3.264469192085e+00
2.993952216535e+00
</dep>
<dep tran.v(pr3) time>
5.987904420944e-09
5.984142109883e-09
5.980379800308e-09
5.972855191555e-09
5.957806057226e-09
5.927708453978e-09
5.867518570652e-09
5.747181385784e-09
5.506847555985e-09
5.028900559273e-09
4.295666723544e-09
3.589120487196e-09
2.920404506448e-09
2.300064831786e-09
1.737884590455e-09
1.242729700689e-09
8.224090508912e-10
4.835513487967e-10
2.315005827911e-10
7.023174402212e-11
2.288138414501e-12
2.874127721622e-11
1.491739786260e-10
3.616869469997e-10
6.629287258769e-10
1.048148552452e-09
1.511271279939e-09
2.044993186272e-09
2.640897158156e-09
3.289585433980e-09
3.980827812126e-09
4.703722987362e-09
5.446870470939e-09
6.198550383105e-09
6.946908282614e-09
7.680142118344e-09
8.386688354691e-09
9.055404335440e-09
9.675744010101e-09
1.023792425143e-08
1.073307914120e-08
1.115339979100e-08
1.149225749309e-08
1.174430825910e-08
1.190557709787e-08
1.197352070347e-08
1.194706756467e-08
1.182663486326e-08
1.161412189489e-08
1.131288011601e-08
1.092766028944e-08
1.046453756195e-08
9.930815655615e-09
9.334911683731e-09
8.686223407907e-09
7.994981029762e-09
7.272085854525e-09
6.528938370949e-09
5.987904420944e-09
</dep>
<dep tran.v(pr4) time>
2.993952210457e-09
2.992071054927e-09
2.990189900139e-09
2.986427595763e-09
2.978903028598e-09
2.963854226974e-09
2.933759285311e-09
2.873590692878e-09
2.753423777979e-09
2.514450279624e-09
2.147833361761e-09
1.794560243589e-09
1.460202253217e-09
1.150032415887e-09
8.689422952231e-10
6.213648503413e-10
4.112045254436e-10
2.417756743971e-10
1.157502913950e-10
3.511587201088e-11
1.144069207245e-12
1.437063860804e-11
7.458698931264e-11
1.808434734989e-10
3.314643629368e-10
5.240742762231e-10
7.556356399659e-10
1.022496593131e-09
1.320448579072e-09
1.644792716982e-09
1.990413906053e-09
2.351861493669e-09
2.723435235456e-09
3.099275191537e-09
3.473454141290e-09
3.840071059153e-09
4.193344177325e-09
4.527702167697e-09
4.837872005026e-09
5.118962125691e-09
5.366539570572e-09
5.576699895470e-09
5.746128746517e-09
5.872154129519e-09
5.952788548903e-09
5.986760351706e-09
5.973533782306e-09
5.913317431601e-09
5.807060947415e-09
5.656440057977e-09
5.463830144691e-09
5.232268780948e-09
4.965407827783e-09
4.667455841842e-09
4.343111703932e-09
3.997490514861e-09
3.636042927244e-09
3.264469185458e-09
2.993952210457e-09
</dep>
